
T19A4 000:426 SEGGER J-Link V4.80g Log File (0001ms, 0280ms total)
T19A4 000:426 DLL Compiled: Feb 13 2014 20:50:02 (0002ms, 0281ms total)
T19A4 000:426 Logging started @ 2015-08-01 18:00 (0002ms, 0281ms total)
T19A4 000:428 JLINK_SetWarnOutHandler(...) (0000ms, 0281ms total)
T19A4 000:428 JLINK_OpenEx(...)
Firmware: J-Link ARM V8 compiled Nov 25 2013 19:20:08
Hardware: V8.00
S/N: 304230680
Feature(s): RDI,FlashDL,FlashBP,JFlash,GDBFULL  returns O.K. (0273ms, 0554ms total)
T19A4 000:701 JLINK_SetErrorOutHandler(...) (0000ms, 0554ms total)
T19A4 000:701 JLINK_ExecCommand("ProjectFile = "C:\Users\Administrator\Desktop\ËÄÖáF4\Project\JLinkSettings.ini"", ...)Device "UNSPECIFIED" selected (0 KB flash, 0 KB RAM).  returns 0x00 (0008ms, 0562ms total)
T19A4 000:713 JLINK_ExecCommand("Device = STM32F407VETx", ...)Device "UNSPECIFIED" selected (0 KB flash, 0 KB RAM).  returns 0x00 (0014ms, 0576ms total)
T19A4 000:727 JLINK_ExecCommand("DisableConnectionTimeout", ...)  returns 0x01 (0000ms, 0576ms total)
T19A4 000:727 JLINK_GetHardwareVersion()  returns 0x13880 (0000ms, 0576ms total)
T19A4 000:727 JLINK_GetDLLVersion()  returns 48007 (0000ms, 0576ms total)
T19A4 000:727 JLINK_GetFirmwareString(...) (0000ms, 0576ms total)
T19A4 000:743 JLINK_GetDLLVersion()  returns 48007 (0000ms, 0576ms total)
T19A4 000:743 JLINK_GetCompileDateTime() (0000ms, 0576ms total)
T19A4 000:749 JLINK_GetFirmwareString(...) (0000ms, 0576ms total)
T19A4 000:753 JLINK_GetHardwareVersion()  returns 0x13880 (0001ms, 0577ms total)
T19A4 000:772 JLINK_TIF_Select(JLINKARM_TIF_SWD)  returns 0x00 (0004ms, 0581ms total)
T19A4 000:776 JLINK_SetSpeed(10000) (0001ms, 0582ms total)
T19A4 000:777 JLINK_GetId() >0x108 TIF>Found SWD-DP with ID 0x2BA01477 >0x0D TIF> >0x21 TIF> >0x0D TIF> >0x28 TIF> >0x0D TIF> >0x28 TIF> >0x0D TIF> >0x21 TIF> >0x0D TIF> >0x28 TIF> >0x0D TIF> >0x21 TIF> >0x0D TIF> >0x21 TIF> >0x0D TIF> >0x21 TIF> >0x0D TIF> >0x21 TIF> >0x0D TIF> >0x28 TIF> >0x0D TIF> >0x28 TIF> >0x0D TIF> >0x21 TIF> >0x0D TIF> >0x28 TIF> >0x0D TIF> >0x28 TIF> >0x0D TIF> >0x28 TIF> >0x0D TIF> >0x21 TIF> >0x0D TIF> >0x21 TIF> >0x0D TIF> >0x28 TIF> >0x0D TIF> >0x21 TIF> >0x0D TIF>
 >0x21 TIF>Found Cortex-M4 r0p1, Little endian. -- CPU_WriteMem(4 bytes @ 0xE0002000) -- CPU_ReadMem(4 bytes @ 0xE000EDF0) -- CPU_ReadMem(4 bytes @ 0xE0002000)FPUnit: 6 code (BP) slots and 2 literal slots -- CPU_ReadMem(4 bytes @ 0xE000EDFC) -- CPU_ReadMem(4 bytes @ 0xE0001000) -- CPU_WriteMem(4 bytes @ 0xE0001000) -- CPU_ReadMem(4 bytes @ 0xE00FF010)TPIU fitted. -- CPU_ReadMem(4 bytes @ 0xE00FF014)ETM fitted. -- CPU_ReadMem(4 bytes @ 0xE00FF018) >0x0D TIF> >0x21 TIF>  returns 0x2BA01477
 (0083ms, 0665ms total)
T19A4 000:860 JLINK_GetDeviceFamily()  returns 14 (0000ms, 0665ms total)
T19A4 000:866 JLINK_ReadMem (0xE00FFFF0, 0x0010 Bytes, ...) -- CPU is running -- CPU_ReadMem(16 bytes @ 0xE00FFFF0) -- Data:  0D 00 00 00 10 00 00 00 05 00 00 00 B1 00 00 00  returns 0x00 (0001ms, 0666ms total)
T19A4 000:867 JLINK_ReadMem (0xE00FFFD0, 0x0020 Bytes, ...) -- CPU is running -- CPU_ReadMem(32 bytes @ 0xE00FFFD0) -- Data:  00 00 00 00 00 00 00 00 00 00 00 00 00 00 00 00 ...  returns 0x00 (0001ms, 0667ms total)
T19A4 000:868 JLINK_ReadMem (0xE00FF000, 0x0018 Bytes, ...) -- CPU is running -- CPU_ReadMem(24 bytes @ 0xE00FF000) -- Data:  03 F0 F0 FF 03 20 F0 FF 03 30 F0 FF 03 10 F0 FF ...  returns 0x00 (0001ms, 0668ms total)
T19A4 000:869 JLINK_ReadMemU32(0xE000ED00, 0x0001 Items, ...) -- CPU is running -- CPU_ReadMem(4 bytes @ 0xE000ED00) -- Data:  41 C2 0F 41  returns 0x01 (0001ms, 0669ms total)
T19A4 000:870 JLINK_ReadMemU32(0xE000EF40, 0x0001 Items, ...) -- CPU is running -- CPU_ReadMem(4 bytes @ 0xE000EF40) -- Data:  21 00 11 10  returns 0x01 (0001ms, 0670ms total)
T19A4 000:871 JLINK_ReadMemU32(0xE000EF44, 0x0001 Items, ...) -- CPU is running -- CPU_ReadMem(4 bytes @ 0xE000EF44) -- Data:  11 00 00 11  returns 0x01 (0001ms, 0671ms total)
T19A4 000:872 JLINK_SetResetType(JLINKARM_RESET_TYPE_NORMAL)  returns JLINKARM_RESET_TYPE_NORMAL (0000ms, 0671ms total)
T19A4 000:872 JLINK_Reset() -- CPU is running -- CPU_WriteMem(4 bytes @ 0xE000EDF0) -- CPU is running -- CPU_WriteMem(4 bytes @ 0xE000EDFC) >0x35 TIF> -- CPU is running -- CPU_WriteMem(4 bytes @ 0xE000ED0C) -- CPU is running -- CPU_ReadMem(4 bytes @ 0xE000EDF0) -- CPU is running -- CPU_ReadMem(4 bytes @ 0xE000EDF0) -- CPU is running -- CPU_WriteMem(4 bytes @ 0xE000EDF0) -- CPU is running -- CPU_WriteMem(4 bytes @ 0xE000EDFC) -- CPU is running -- CPU_ReadMem(4 bytes @ 0xE000EDF0)
 -- CPU_WriteMem(4 bytes @ 0xE0002000) -- CPU_ReadMem(4 bytes @ 0xE000EDFC) -- CPU_ReadMem(4 bytes @ 0xE0001000) (0023ms, 0694ms total)
T19A4 000:895 JLINK_Halt()  returns 0x00 (0000ms, 0694ms total)
T19A4 000:895 JLINK_IsHalted()  returns TRUE (0000ms, 0694ms total)
T19A4 000:895 JLINK_ReadMemU32(0xE000EDF0, 0x0001 Items, ...) -- CPU_ReadMem(4 bytes @ 0xE000EDF0) -- Data:  03 00 03 00  returns 0x01 (0001ms, 0695ms total)
T19A4 000:896 JLINK_WriteU32(0xE000EDF0, 0xA05F0003) -- CPU_WriteMem(4 bytes @ 0xE000EDF0)  returns 0x00 (0001ms, 0696ms total)
T19A4 000:897 JLINK_WriteU32(0xE000EDFC, 0x01000000) -- CPU_WriteMem(4 bytes @ 0xE000EDFC)  returns 0x00 (0001ms, 0697ms total)
T19A4 000:918 JLINK_GetHWStatus(...)  returns 0x00 (0002ms, 0699ms total)
T19A4 000:932 JLINK_GetNumBPUnits(Type = 0xFFFFFF00)  returns 0x06 (0000ms, 0699ms total)
T19A4 000:932 JLINK_GetNumBPUnits(Type = 0xF0)  returns 0x2000 (0000ms, 0699ms total)
T19A4 000:932 JLINK_GetNumWPUnits()  returns 0x04 (0000ms, 0699ms total)
T19A4 000:946 JLINK_GetSpeed()  returns 0xFA0 (0000ms, 0699ms total)
T19A4 000:953 JLINK_ReadMemU32(0xE000E004, 0x0001 Items, ...) -- CPU_ReadMem(4 bytes @ 0xE000E004) -- Data:  02 00 00 00  returns 0x01 (0001ms, 0700ms total)
T19A4 000:954 JLINK_ReadMemU32(0xE000E004, 0x0001 Items, ...) -- CPU_ReadMem(4 bytes @ 0xE000E004) -- Data:  02 00 00 00  returns 0x01 (0001ms, 0701ms total)
T19A4 000:955 JLINK_WriteMem(0xE0001000, 0x001C Bytes, ...) -- Data:  01 00 00 00 00 00 00 00 00 00 00 00 00 00 00 00 ... -- CPU_WriteMem(28 bytes @ 0xE0001000)  returns 0x1C (0001ms, 0702ms total)
T19A4 000:956 JLINK_ReadMem (0xE0001000, 0x001C Bytes, ...) -- CPU_ReadMem(28 bytes @ 0xE0001000) -- Data:  01 00 00 40 00 00 00 00 00 00 00 00 00 00 00 00 ...  returns 0x00 (0001ms, 0703ms total)
T19A4 000:957 JLINK_Halt()  returns 0x00 (0000ms, 0703ms total)
T19A4 000:957 JLINK_IsHalted()  returns TRUE (0000ms, 0703ms total)
T19A4 000:959 JLINK_WriteMem(0x20000000, 0x0188 Bytes, ...) -- Data:  00 BE 0A E0 0D 78 2D 06 68 40 08 24 40 00 00 D3 ... -- CPU_WriteMem(392 bytes @ 0x20000000)  returns 0x188 (0003ms, 0706ms total)
T19A4 000:962 JLINK_WriteReg(R0, 0x08000000)  returns 0x00 (0000ms, 0706ms total)
T19A4 000:962 JLINK_WriteReg(R1, 0x00B71B00)  returns 0x00 (0000ms, 0706ms total)
T19A4 000:962 JLINK_WriteReg(R2, 0x00000001)  returns 0x00 (0000ms, 0706ms total)
T19A4 000:962 JLINK_WriteReg(R3, 0x00000000)  returns 0x00 (0000ms, 0706ms total)
T19A4 000:962 JLINK_WriteReg(R4, 0x00000000)  returns 0x00 (0000ms, 0706ms total)
T19A4 000:962 JLINK_WriteReg(R5, 0x00000000)  returns 0x00 (0000ms, 0706ms total)
T19A4 000:962 JLINK_WriteReg(R6, 0x00000000)  returns 0x00 (0000ms, 0706ms total)
T19A4 000:962 JLINK_WriteReg(R7, 0x00000000)  returns 0x00 (0000ms, 0706ms total)
T19A4 000:962 JLINK_WriteReg(R8, 0x00000000)  returns 0x00 (0000ms, 0706ms total)
T19A4 000:962 JLINK_WriteReg(R9, 0x20000184)  returns 0x00 (0000ms, 0706ms total)
T19A4 000:962 JLINK_WriteReg(R10, 0x00000000)  returns 0x00 (0001ms, 0707ms total)
T19A4 000:963 JLINK_WriteReg(R11, 0x00000000)  returns 0x00 (0000ms, 0707ms total)
T19A4 000:963 JLINK_WriteReg(R12, 0x00000000)  returns 0x00 (0000ms, 0707ms total)
T19A4 000:963 JLINK_WriteReg(R13 (SP), 0x20000800)  returns 0x00 (0000ms, 0707ms total)
T19A4 000:963 JLINK_WriteReg(R14, 0x20000001)  returns 0x00 (0000ms, 0707ms total)
T19A4 000:963 JLINK_WriteReg(R15 (PC), 0x2000005E)  returns 0x00 (0000ms, 0707ms total)
T19A4 000:963 JLINK_WriteReg(XPSR, 0x01000000)  returns 0x00 (0000ms, 0707ms total)
T19A4 000:963 JLINK_WriteReg(MSP, 0x20000800)  returns 0x00 (0000ms, 0707ms total)
T19A4 000:963 JLINK_WriteReg(PSP, 0x20000800)  returns 0x00 (0000ms, 0707ms total)
T19A4 000:963 JLINK_WriteReg(CFBP, 0x00000000)  returns 0x00 (0000ms, 0707ms total)
T19A4 000:963 JLINK_SetBPEx(Addr = 0x20000000, Type = 0xFFFFFFF2) -- CPU_ReadMem(4 bytes @ 0x20000000) -- CPU_WriteMem(4 bytes @ 0x20000000) -- CPU_ReadMem(4 bytes @ 0x20000000) -- CPU_WriteMem(4 bytes @ 0x20000000) -- CPU_ReadMem(2 bytes @ 0x20000000)  returns 0x00000001 (0005ms, 0712ms total)
T19A4 000:968 JLINK_Go() -- CPU_WriteMem(2 bytes @ 0x20000000) -- CPU_WriteMem(4 bytes @ 0xE0002008) -- CPU_WriteMem(4 bytes @ 0xE000200C) -- CPU_WriteMem(4 bytes @ 0xE0002010) -- CPU_WriteMem(4 bytes @ 0xE0002014) -- CPU_WriteMem(4 bytes @ 0xE0002018) -- CPU_WriteMem(4 bytes @ 0xE000201C) -- CPU_WriteMem(4 bytes @ 0xE0001004) (0010ms, 0722ms total)
T19A4 000:978 JLINK_IsHalted() -- CPU_ReadMem(2 bytes @ 0x20000000)  returns TRUE (0004ms, 0726ms total)
T19A4 000:982 JLINK_ReadReg(R15 (PC))  returns 0x20000000 (0000ms, 0722ms total)
T19A4 000:982 JLINK_ClrBPEx(BPHandle = 0x00000001)  returns 0x00 (0000ms, 0722ms total)
T19A4 000:982 JLINK_ReadReg(R0)  returns 0x00000000 (0000ms, 0722ms total)
T19A4 000:983 JLINK_WriteReg(R0, 0x08000000)  returns 0x00 (0000ms, 0722ms total)
T19A4 000:983 JLINK_WriteReg(R1, 0x00004000)  returns 0x00 (0000ms, 0722ms total)
T19A4 000:983 JLINK_WriteReg(R2, 0x000000FF)  returns 0x00 (0000ms, 0722ms total)
T19A4 000:983 JLINK_WriteReg(R3, 0x00000000)  returns 0x00 (0000ms, 0722ms total)
T19A4 000:983 JLINK_WriteReg(R4, 0x00000000)  returns 0x00 (0000ms, 0722ms total)
T19A4 000:983 JLINK_WriteReg(R5, 0x00000000)  returns 0x00 (0000ms, 0722ms total)
T19A4 000:983 JLINK_WriteReg(R6, 0x00000000)  returns 0x00 (0000ms, 0722ms total)
T19A4 000:983 JLINK_WriteReg(R7, 0x00000000)  returns 0x00 (0000ms, 0722ms total)
T19A4 000:983 JLINK_WriteReg(R8, 0x00000000)  returns 0x00 (0000ms, 0722ms total)
T19A4 000:983 JLINK_WriteReg(R9, 0x20000184)  returns 0x00 (0000ms, 0722ms total)
T19A4 000:983 JLINK_WriteReg(R10, 0x00000000)  returns 0x00 (0000ms, 0722ms total)
T19A4 000:983 JLINK_WriteReg(R11, 0x00000000)  returns 0x00 (0001ms, 0723ms total)
T19A4 000:984 JLINK_WriteReg(R12, 0x00000000)  returns 0x00 (0000ms, 0723ms total)
T19A4 000:984 JLINK_WriteReg(R13 (SP), 0x20000800)  returns 0x00 (0000ms, 0723ms total)
T19A4 000:984 JLINK_WriteReg(R14, 0x20000001)  returns 0x00 (0000ms, 0723ms total)
T19A4 000:984 JLINK_WriteReg(R15 (PC), 0x20000020)  returns 0x00 (0000ms, 0723ms total)
T19A4 000:984 JLINK_WriteReg(XPSR, 0x01000000)  returns 0x00 (0000ms, 0723ms total)
T19A4 000:984 JLINK_WriteReg(MSP, 0x20000800)  returns 0x00 (0000ms, 0723ms total)
T19A4 000:984 JLINK_WriteReg(PSP, 0x20000800)  returns 0x00 (0000ms, 0723ms total)
T19A4 000:984 JLINK_WriteReg(CFBP, 0x00000000)  returns 0x00 (0000ms, 0723ms total)
T19A4 000:984 JLINK_SetBPEx(Addr = 0x20000000, Type = 0xFFFFFFF2)  returns 0x00000002 (0000ms, 0723ms total)
T19A4 000:984 JLINK_Go() (0002ms, 0725ms total)
T19A4 000:986 JLINK_IsHalted() -- CPU_ReadMem(2 bytes @ 0x20000000)  returns TRUE (0004ms, 0729ms total)
T19A4 000:990 JLINK_ReadReg(R15 (PC))  returns 0x20000000 (0000ms, 0725ms total)
T19A4 000:990 JLINK_ClrBPEx(BPHandle = 0x00000002)  returns 0x00 (0000ms, 0725ms total)
T19A4 000:990 JLINK_ReadReg(R0)  returns 0x00000001 (0000ms, 0725ms total)
T19A4 000:990 JLINK_WriteReg(R0, 0x08000000)  returns 0x00 (0000ms, 0725ms total)
T19A4 000:990 JLINK_WriteReg(R1, 0x00004000)  returns 0x00 (0000ms, 0725ms total)
T19A4 000:990 JLINK_WriteReg(R2, 0x000000FF)  returns 0x00 (0000ms, 0725ms total)
T19A4 000:990 JLINK_WriteReg(R3, 0x00000000)  returns 0x00 (0000ms, 0725ms total)
T19A4 000:990 JLINK_WriteReg(R4, 0x00000000)  returns 0x00 (0000ms, 0725ms total)
T19A4 000:990 JLINK_WriteReg(R5, 0x00000000)  returns 0x00 (0000ms, 0725ms total)
T19A4 000:990 JLINK_WriteReg(R6, 0x00000000)  returns 0x00 (0000ms, 0725ms total)
T19A4 000:990 JLINK_WriteReg(R7, 0x00000000)  returns 0x00 (0000ms, 0725ms total)
T19A4 000:990 JLINK_WriteReg(R8, 0x00000000)  returns 0x00 (0000ms, 0725ms total)
T19A4 000:990 JLINK_WriteReg(R9, 0x20000184)  returns 0x00 (0000ms, 0725ms total)
T19A4 000:990 JLINK_WriteReg(R10, 0x00000000)  returns 0x00 (0000ms, 0725ms total)
T19A4 000:990 JLINK_WriteReg(R11, 0x00000000)  returns 0x00 (0000ms, 0725ms total)
T19A4 000:990 JLINK_WriteReg(R12, 0x00000000)  returns 0x00 (0000ms, 0725ms total)
T19A4 000:990 JLINK_WriteReg(R13 (SP), 0x20000800)  returns 0x00 (0000ms, 0725ms total)
T19A4 000:990 JLINK_WriteReg(R14, 0x20000001)  returns 0x00 (0001ms, 0726ms total)
T19A4 000:991 JLINK_WriteReg(R15 (PC), 0x200000C6)  returns 0x00 (0000ms, 0726ms total)
T19A4 000:991 JLINK_WriteReg(XPSR, 0x01000000)  returns 0x00 (0000ms, 0726ms total)
T19A4 000:991 JLINK_WriteReg(MSP, 0x20000800)  returns 0x00 (0000ms, 0726ms total)
T19A4 000:991 JLINK_WriteReg(PSP, 0x20000800)  returns 0x00 (0000ms, 0726ms total)
T19A4 000:991 JLINK_WriteReg(CFBP, 0x00000000)  returns 0x00 (0000ms, 0726ms total)
T19A4 000:991 JLINK_SetBPEx(Addr = 0x20000000, Type = 0xFFFFFFF2)  returns 0x00000003 (0000ms, 0726ms total)
T19A4 000:991 JLINK_Go() (0002ms, 0728ms total)
T19A4 000:993 JLINK_IsHalted()  returns FALSE (0001ms, 0729ms total)
T19A4 001:144 JLINK_IsHalted()  returns FALSE (0002ms, 0730ms total)
T19A4 001:265 JLINK_IsHalted()  returns FALSE (0001ms, 0729ms total)
T19A4 001:381 JLINK_IsHalted() -- CPU_ReadMem(2 bytes @ 0x20000000)  returns TRUE (0004ms, 0732ms total)
T19A4 001:385 JLINK_ReadReg(R15 (PC))  returns 0x20000000 (0000ms, 0728ms total)
T19A4 001:385 JLINK_ClrBPEx(BPHandle = 0x00000003)  returns 0x00 (0000ms, 0728ms total)
T19A4 001:385 JLINK_ReadReg(R0)  returns 0x00000000 (0000ms, 0728ms total)
T19A4 001:385 JLINK_WriteReg(R0, 0x08004000)  returns 0x00 (0000ms, 0728ms total)
T19A4 001:385 JLINK_WriteReg(R1, 0x00004000)  returns 0x00 (0000ms, 0728ms total)
T19A4 001:385 JLINK_WriteReg(R2, 0x000000FF)  returns 0x00 (0000ms, 0728ms total)
T19A4 001:385 JLINK_WriteReg(R3, 0x00000000)  returns 0x00 (0000ms, 0728ms total)
T19A4 001:385 JLINK_WriteReg(R4, 0x00000000)  returns 0x00 (0001ms, 0729ms total)
T19A4 001:386 JLINK_WriteReg(R5, 0x00000000)  returns 0x00 (0000ms, 0729ms total)
T19A4 001:386 JLINK_WriteReg(R6, 0x00000000)  returns 0x00 (0000ms, 0729ms total)
T19A4 001:386 JLINK_WriteReg(R7, 0x00000000)  returns 0x00 (0000ms, 0729ms total)
T19A4 001:386 JLINK_WriteReg(R8, 0x00000000)  returns 0x00 (0000ms, 0729ms total)
T19A4 001:386 JLINK_WriteReg(R9, 0x20000184)  returns 0x00 (0000ms, 0729ms total)
T19A4 001:386 JLINK_WriteReg(R10, 0x00000000)  returns 0x00 (0000ms, 0729ms total)
T19A4 001:386 JLINK_WriteReg(R11, 0x00000000)  returns 0x00 (0000ms, 0729ms total)
T19A4 001:386 JLINK_WriteReg(R12, 0x00000000)  returns 0x00 (0000ms, 0729ms total)
T19A4 001:386 JLINK_WriteReg(R13 (SP), 0x20000800)  returns 0x00 (0000ms, 0729ms total)
T19A4 001:386 JLINK_WriteReg(R14, 0x20000001)  returns 0x00 (0000ms, 0729ms total)
T19A4 001:386 JLINK_WriteReg(R15 (PC), 0x20000020)  returns 0x00 (0000ms, 0729ms total)
T19A4 001:386 JLINK_WriteReg(XPSR, 0x01000000)  returns 0x00 (0000ms, 0729ms total)
T19A4 001:386 JLINK_WriteReg(MSP, 0x20000800)  returns 0x00 (0000ms, 0729ms total)
T19A4 001:386 JLINK_WriteReg(PSP, 0x20000800)  returns 0x00 (0000ms, 0729ms total)
T19A4 001:386 JLINK_WriteReg(CFBP, 0x00000000)  returns 0x00 (0000ms, 0729ms total)
T19A4 001:386 JLINK_SetBPEx(Addr = 0x20000000, Type = 0xFFFFFFF2)  returns 0x00000004 (0000ms, 0729ms total)
T19A4 001:386 JLINK_Go() (0002ms, 0731ms total)
T19A4 001:388 JLINK_IsHalted() -- CPU_ReadMem(2 bytes @ 0x20000000)  returns TRUE (0004ms, 0735ms total)
T19A4 001:392 JLINK_ReadReg(R15 (PC))  returns 0x20000000 (0000ms, 0731ms total)
T19A4 001:392 JLINK_ClrBPEx(BPHandle = 0x00000004)  returns 0x00 (0000ms, 0731ms total)
T19A4 001:392 JLINK_ReadReg(R0)  returns 0x00000001 (0000ms, 0731ms total)
T19A4 001:392 JLINK_WriteReg(R0, 0x08004000)  returns 0x00 (0000ms, 0731ms total)
T19A4 001:392 JLINK_WriteReg(R1, 0x00004000)  returns 0x00 (0001ms, 0732ms total)
T19A4 001:393 JLINK_WriteReg(R2, 0x000000FF)  returns 0x00 (0000ms, 0732ms total)
T19A4 001:393 JLINK_WriteReg(R3, 0x00000000)  returns 0x00 (0000ms, 0732ms total)
T19A4 001:393 JLINK_WriteReg(R4, 0x00000000)  returns 0x00 (0000ms, 0732ms total)
T19A4 001:393 JLINK_WriteReg(R5, 0x00000000)  returns 0x00 (0000ms, 0732ms total)
T19A4 001:393 JLINK_WriteReg(R6, 0x00000000)  returns 0x00 (0000ms, 0732ms total)
T19A4 001:393 JLINK_WriteReg(R7, 0x00000000)  returns 0x00 (0000ms, 0732ms total)
T19A4 001:393 JLINK_WriteReg(R8, 0x00000000)  returns 0x00 (0000ms, 0732ms total)
T19A4 001:393 JLINK_WriteReg(R9, 0x20000184)  returns 0x00 (0000ms, 0732ms total)
T19A4 001:393 JLINK_WriteReg(R10, 0x00000000)  returns 0x00 (0000ms, 0732ms total)
T19A4 001:393 JLINK_WriteReg(R11, 0x00000000)  returns 0x00 (0000ms, 0732ms total)
T19A4 001:393 JLINK_WriteReg(R12, 0x00000000)  returns 0x00 (0000ms, 0732ms total)
T19A4 001:393 JLINK_WriteReg(R13 (SP), 0x20000800)  returns 0x00 (0000ms, 0732ms total)
T19A4 001:393 JLINK_WriteReg(R14, 0x20000001)  returns 0x00 (0000ms, 0732ms total)
T19A4 001:393 JLINK_WriteReg(R15 (PC), 0x200000C6)  returns 0x00 (0000ms, 0732ms total)
T19A4 001:393 JLINK_WriteReg(XPSR, 0x01000000)  returns 0x00 (0000ms, 0732ms total)
T19A4 001:393 JLINK_WriteReg(MSP, 0x20000800)  returns 0x00 (0000ms, 0732ms total)
T19A4 001:393 JLINK_WriteReg(PSP, 0x20000800)  returns 0x00 (0000ms, 0732ms total)
T19A4 001:393 JLINK_WriteReg(CFBP, 0x00000000)  returns 0x00 (0000ms, 0732ms total)
T19A4 001:393 JLINK_SetBPEx(Addr = 0x20000000, Type = 0xFFFFFFF2)  returns 0x00000005 (0000ms, 0732ms total)
T19A4 001:393 JLINK_Go() (0002ms, 0734ms total)
T19A4 001:395 JLINK_IsHalted()  returns FALSE (0001ms, 0735ms total)
T19A4 001:516 JLINK_IsHalted()  returns FALSE (0001ms, 0735ms total)
T19A4 001:638 JLINK_IsHalted()  returns FALSE (0001ms, 0735ms total)
T19A4 001:754 JLINK_IsHalted() -- CPU_ReadMem(2 bytes @ 0x20000000)  returns TRUE (0004ms, 0738ms total)
T19A4 001:758 JLINK_ReadReg(R15 (PC))  returns 0x20000000 (0000ms, 0734ms total)
T19A4 001:758 JLINK_ClrBPEx(BPHandle = 0x00000005)  returns 0x00 (0000ms, 0734ms total)
T19A4 001:758 JLINK_ReadReg(R0)  returns 0x00000000 (0000ms, 0734ms total)
T19A4 001:758 JLINK_WriteReg(R0, 0x08008000)  returns 0x00 (0000ms, 0734ms total)
T19A4 001:758 JLINK_WriteReg(R1, 0x00004000)  returns 0x00 (0000ms, 0734ms total)
T19A4 001:758 JLINK_WriteReg(R2, 0x000000FF)  returns 0x00 (0000ms, 0734ms total)
T19A4 001:758 JLINK_WriteReg(R3, 0x00000000)  returns 0x00 (0000ms, 0734ms total)
T19A4 001:758 JLINK_WriteReg(R4, 0x00000000)  returns 0x00 (0000ms, 0734ms total)
T19A4 001:758 JLINK_WriteReg(R5, 0x00000000)  returns 0x00 (0001ms, 0735ms total)
T19A4 001:759 JLINK_WriteReg(R6, 0x00000000)  returns 0x00 (0000ms, 0735ms total)
T19A4 001:759 JLINK_WriteReg(R7, 0x00000000)  returns 0x00 (0000ms, 0735ms total)
T19A4 001:759 JLINK_WriteReg(R8, 0x00000000)  returns 0x00 (0000ms, 0735ms total)
T19A4 001:759 JLINK_WriteReg(R9, 0x20000184)  returns 0x00 (0000ms, 0735ms total)
T19A4 001:759 JLINK_WriteReg(R10, 0x00000000)  returns 0x00 (0000ms, 0735ms total)
T19A4 001:759 JLINK_WriteReg(R11, 0x00000000)  returns 0x00 (0000ms, 0735ms total)
T19A4 001:759 JLINK_WriteReg(R12, 0x00000000)  returns 0x00 (0000ms, 0735ms total)
T19A4 001:759 JLINK_WriteReg(R13 (SP), 0x20000800)  returns 0x00 (0000ms, 0735ms total)
T19A4 001:759 JLINK_WriteReg(R14, 0x20000001)  returns 0x00 (0000ms, 0735ms total)
T19A4 001:759 JLINK_WriteReg(R15 (PC), 0x20000020)  returns 0x00 (0000ms, 0735ms total)
T19A4 001:759 JLINK_WriteReg(XPSR, 0x01000000)  returns 0x00 (0000ms, 0735ms total)
T19A4 001:759 JLINK_WriteReg(MSP, 0x20000800)  returns 0x00 (0000ms, 0735ms total)
T19A4 001:759 JLINK_WriteReg(PSP, 0x20000800)  returns 0x00 (0000ms, 0735ms total)
T19A4 001:759 JLINK_WriteReg(CFBP, 0x00000000)  returns 0x00 (0000ms, 0735ms total)
T19A4 001:759 JLINK_SetBPEx(Addr = 0x20000000, Type = 0xFFFFFFF2)  returns 0x00000006 (0000ms, 0735ms total)
T19A4 001:759 JLINK_Go() (0002ms, 0737ms total)
T19A4 001:761 JLINK_IsHalted() -- CPU_ReadMem(2 bytes @ 0x20000000)  returns TRUE (0004ms, 0741ms total)
T19A4 001:765 JLINK_ReadReg(R15 (PC))  returns 0x20000000 (0000ms, 0737ms total)
T19A4 001:765 JLINK_ClrBPEx(BPHandle = 0x00000006)  returns 0x00 (0000ms, 0737ms total)
T19A4 001:765 JLINK_ReadReg(R0)  returns 0x00000001 (0000ms, 0737ms total)
T19A4 001:765 JLINK_WriteReg(R0, 0x08008000)  returns 0x00 (0000ms, 0737ms total)
T19A4 001:765 JLINK_WriteReg(R1, 0x00004000)  returns 0x00 (0000ms, 0737ms total)
T19A4 001:765 JLINK_WriteReg(R2, 0x000000FF)  returns 0x00 (0000ms, 0737ms total)
T19A4 001:765 JLINK_WriteReg(R3, 0x00000000)  returns 0x00 (0000ms, 0737ms total)
T19A4 001:765 JLINK_WriteReg(R4, 0x00000000)  returns 0x00 (0000ms, 0737ms total)
T19A4 001:765 JLINK_WriteReg(R5, 0x00000000)  returns 0x00 (0000ms, 0737ms total)
T19A4 001:765 JLINK_WriteReg(R6, 0x00000000)  returns 0x00 (0000ms, 0737ms total)
T19A4 001:765 JLINK_WriteReg(R7, 0x00000000)  returns 0x00 (0000ms, 0737ms total)
T19A4 001:765 JLINK_WriteReg(R8, 0x00000000)  returns 0x00 (0000ms, 0737ms total)
T19A4 001:765 JLINK_WriteReg(R9, 0x20000184)  returns 0x00 (0001ms, 0738ms total)
T19A4 001:766 JLINK_WriteReg(R10, 0x00000000)  returns 0x00 (0000ms, 0738ms total)
T19A4 001:766 JLINK_WriteReg(R11, 0x00000000)  returns 0x00 (0000ms, 0738ms total)
T19A4 001:766 JLINK_WriteReg(R12, 0x00000000)  returns 0x00 (0000ms, 0738ms total)
T19A4 001:766 JLINK_WriteReg(R13 (SP), 0x20000800)  returns 0x00 (0000ms, 0738ms total)
T19A4 001:766 JLINK_WriteReg(R14, 0x20000001)  returns 0x00 (0000ms, 0738ms total)
T19A4 001:766 JLINK_WriteReg(R15 (PC), 0x200000C6)  returns 0x00 (0000ms, 0738ms total)
T19A4 001:766 JLINK_WriteReg(XPSR, 0x01000000)  returns 0x00 (0000ms, 0738ms total)
T19A4 001:766 JLINK_WriteReg(MSP, 0x20000800)  returns 0x00 (0000ms, 0738ms total)
T19A4 001:766 JLINK_WriteReg(PSP, 0x20000800)  returns 0x00 (0000ms, 0738ms total)
T19A4 001:766 JLINK_WriteReg(CFBP, 0x00000000)  returns 0x00 (0000ms, 0738ms total)
T19A4 001:766 JLINK_SetBPEx(Addr = 0x20000000, Type = 0xFFFFFFF2)  returns 0x00000007 (0000ms, 0738ms total)
T19A4 001:766 JLINK_Go() (0002ms, 0740ms total)
T19A4 001:768 JLINK_IsHalted()  returns FALSE (0001ms, 0741ms total)
T19A4 001:891 JLINK_IsHalted()  returns FALSE (0001ms, 0741ms total)
T19A4 002:014 JLINK_IsHalted()  returns FALSE (0001ms, 0741ms total)
T19A4 002:139 JLINK_IsHalted() -- CPU_ReadMem(2 bytes @ 0x20000000)  returns TRUE (0004ms, 0744ms total)
T19A4 002:143 JLINK_ReadReg(R15 (PC))  returns 0x20000000 (0000ms, 0740ms total)
T19A4 002:143 JLINK_ClrBPEx(BPHandle = 0x00000007)  returns 0x00 (0000ms, 0740ms total)
T19A4 002:143 JLINK_ReadReg(R0)  returns 0x00000000 (0000ms, 0740ms total)
T19A4 002:143 JLINK_WriteReg(R0, 0x0800C000)  returns 0x00 (0000ms, 0740ms total)
T19A4 002:143 JLINK_WriteReg(R1, 0x00004000)  returns 0x00 (0000ms, 0740ms total)
T19A4 002:143 JLINK_WriteReg(R2, 0x000000FF)  returns 0x00 (0000ms, 0740ms total)
T19A4 002:144 JLINK_WriteReg(R3, 0x00000000)  returns 0x00 (0000ms, 0741ms total)
T19A4 002:144 JLINK_WriteReg(R4, 0x00000000)  returns 0x00 (0000ms, 0741ms total)
T19A4 002:144 JLINK_WriteReg(R5, 0x00000000)  returns 0x00 (0000ms, 0741ms total)
T19A4 002:144 JLINK_WriteReg(R6, 0x00000000)  returns 0x00 (0000ms, 0741ms total)
T19A4 002:144 JLINK_WriteReg(R7, 0x00000000)  returns 0x00 (0000ms, 0741ms total)
T19A4 002:144 JLINK_WriteReg(R8, 0x00000000)  returns 0x00 (0000ms, 0741ms total)
T19A4 002:144 JLINK_WriteReg(R9, 0x20000184)  returns 0x00 (0000ms, 0741ms total)
T19A4 002:144 JLINK_WriteReg(R10, 0x00000000)  returns 0x00 (0000ms, 0741ms total)
T19A4 002:144 JLINK_WriteReg(R11, 0x00000000)  returns 0x00 (0000ms, 0741ms total)
T19A4 002:144 JLINK_WriteReg(R12, 0x00000000)  returns 0x00 (0000ms, 0741ms total)
T19A4 002:144 JLINK_WriteReg(R13 (SP), 0x20000800)  returns 0x00 (0000ms, 0741ms total)
T19A4 002:144 JLINK_WriteReg(R14, 0x20000001)  returns 0x00 (0000ms, 0741ms total)
T19A4 002:144 JLINK_WriteReg(R15 (PC), 0x20000020)  returns 0x00 (0000ms, 0741ms total)
T19A4 002:144 JLINK_WriteReg(XPSR, 0x01000000)  returns 0x00 (0000ms, 0741ms total)
T19A4 002:144 JLINK_WriteReg(MSP, 0x20000800)  returns 0x00 (0000ms, 0741ms total)
T19A4 002:144 JLINK_WriteReg(PSP, 0x20000800)  returns 0x00 (0000ms, 0741ms total)
T19A4 002:144 JLINK_WriteReg(CFBP, 0x00000000)  returns 0x00 (0000ms, 0741ms total)
T19A4 002:144 JLINK_SetBPEx(Addr = 0x20000000, Type = 0xFFFFFFF2)  returns 0x00000008 (0000ms, 0741ms total)
T19A4 002:144 JLINK_Go() (0002ms, 0743ms total)
T19A4 002:146 JLINK_IsHalted() -- CPU_ReadMem(2 bytes @ 0x20000000)  returns TRUE (0005ms, 0748ms total)
T19A4 002:151 JLINK_ReadReg(R15 (PC))  returns 0x20000000 (0000ms, 0743ms total)
T19A4 002:151 JLINK_ClrBPEx(BPHandle = 0x00000008)  returns 0x00 (0000ms, 0743ms total)
T19A4 002:151 JLINK_ReadReg(R0)  returns 0x00000001 (0000ms, 0743ms total)
T19A4 002:151 JLINK_WriteReg(R0, 0x0800C000)  returns 0x00 (0000ms, 0743ms total)
T19A4 002:151 JLINK_WriteReg(R1, 0x00004000)  returns 0x00 (0000ms, 0743ms total)
T19A4 002:151 JLINK_WriteReg(R2, 0x000000FF)  returns 0x00 (0000ms, 0743ms total)
T19A4 002:151 JLINK_WriteReg(R3, 0x00000000)  returns 0x00 (0000ms, 0743ms total)
T19A4 002:151 JLINK_WriteReg(R4, 0x00000000)  returns 0x00 (0000ms, 0743ms total)
T19A4 002:151 JLINK_WriteReg(R5, 0x00000000)  returns 0x00 (0000ms, 0743ms total)
T19A4 002:151 JLINK_WriteReg(R6, 0x00000000)  returns 0x00 (0000ms, 0743ms total)
T19A4 002:151 JLINK_WriteReg(R7, 0x00000000)  returns 0x00 (0001ms, 0744ms total)
T19A4 002:152 JLINK_WriteReg(R8, 0x00000000)  returns 0x00 (0000ms, 0744ms total)
T19A4 002:152 JLINK_WriteReg(R9, 0x20000184)  returns 0x00 (0000ms, 0744ms total)
T19A4 002:152 JLINK_WriteReg(R10, 0x00000000)  returns 0x00 (0000ms, 0744ms total)
T19A4 002:152 JLINK_WriteReg(R11, 0x00000000)  returns 0x00 (0000ms, 0744ms total)
T19A4 002:152 JLINK_WriteReg(R12, 0x00000000)  returns 0x00 (0000ms, 0744ms total)
T19A4 002:152 JLINK_WriteReg(R13 (SP), 0x20000800)  returns 0x00 (0000ms, 0744ms total)
T19A4 002:152 JLINK_WriteReg(R14, 0x20000001)  returns 0x00 (0000ms, 0744ms total)
T19A4 002:152 JLINK_WriteReg(R15 (PC), 0x200000C6)  returns 0x00 (0000ms, 0744ms total)
T19A4 002:152 JLINK_WriteReg(XPSR, 0x01000000)  returns 0x00 (0000ms, 0744ms total)
T19A4 002:152 JLINK_WriteReg(MSP, 0x20000800)  returns 0x00 (0000ms, 0744ms total)
T19A4 002:152 JLINK_WriteReg(PSP, 0x20000800)  returns 0x00 (0000ms, 0744ms total)
T19A4 002:152 JLINK_WriteReg(CFBP, 0x00000000)  returns 0x00 (0000ms, 0744ms total)
T19A4 002:152 JLINK_SetBPEx(Addr = 0x20000000, Type = 0xFFFFFFF2)  returns 0x00000009 (0000ms, 0744ms total)
T19A4 002:152 JLINK_Go() (0002ms, 0746ms total)
T19A4 002:154 JLINK_IsHalted()  returns FALSE (0001ms, 0747ms total)
T19A4 002:271 JLINK_IsHalted()  returns FALSE (0001ms, 0747ms total)
T19A4 002:401 JLINK_IsHalted()  returns FALSE (0001ms, 0747ms total)
T19A4 002:522 JLINK_IsHalted() -- CPU_ReadMem(2 bytes @ 0x20000000)  returns TRUE (0004ms, 0750ms total)
T19A4 002:526 JLINK_ReadReg(R15 (PC))  returns 0x20000000 (0000ms, 0746ms total)
T19A4 002:526 JLINK_ClrBPEx(BPHandle = 0x00000009)  returns 0x00 (0000ms, 0746ms total)
T19A4 002:526 JLINK_ReadReg(R0)  returns 0x00000000 (0000ms, 0746ms total)
T19A4 002:526 JLINK_WriteReg(R0, 0x00000001)  returns 0x00 (0000ms, 0746ms total)
T19A4 002:526 JLINK_WriteReg(R1, 0x00004000)  returns 0x00 (0000ms, 0746ms total)
T19A4 002:526 JLINK_WriteReg(R2, 0x000000FF)  returns 0x00 (0000ms, 0746ms total)
T19A4 002:526 JLINK_WriteReg(R3, 0x00000000)  returns 0x00 (0000ms, 0746ms total)
T19A4 002:526 JLINK_WriteReg(R4, 0x00000000)  returns 0x00 (0000ms, 0746ms total)
T19A4 002:526 JLINK_WriteReg(R5, 0x00000000)  returns 0x00 (0000ms, 0746ms total)
T19A4 002:526 JLINK_WriteReg(R6, 0x00000000)  returns 0x00 (0000ms, 0746ms total)
T19A4 002:526 JLINK_WriteReg(R7, 0x00000000)  returns 0x00 (0000ms, 0746ms total)
T19A4 002:526 JLINK_WriteReg(R8, 0x00000000)  returns 0x00 (0000ms, 0746ms total)
T19A4 002:526 JLINK_WriteReg(R9, 0x20000184)  returns 0x00 (0000ms, 0746ms total)
T19A4 002:526 JLINK_WriteReg(R10, 0x00000000)  returns 0x00 (0000ms, 0746ms total)
T19A4 002:526 JLINK_WriteReg(R11, 0x00000000)  returns 0x00 (0001ms, 0747ms total)
T19A4 002:527 JLINK_WriteReg(R12, 0x00000000)  returns 0x00 (0000ms, 0747ms total)
T19A4 002:527 JLINK_WriteReg(R13 (SP), 0x20000800)  returns 0x00 (0000ms, 0747ms total)
T19A4 002:527 JLINK_WriteReg(R14, 0x20000001)  returns 0x00 (0000ms, 0747ms total)
T19A4 002:527 JLINK_WriteReg(R15 (PC), 0x2000008C)  returns 0x00 (0000ms, 0747ms total)
T19A4 002:527 JLINK_WriteReg(XPSR, 0x01000000)  returns 0x00 (0000ms, 0747ms total)
T19A4 002:527 JLINK_WriteReg(MSP, 0x20000800)  returns 0x00 (0000ms, 0747ms total)
T19A4 002:527 JLINK_WriteReg(PSP, 0x20000800)  returns 0x00 (0000ms, 0747ms total)
T19A4 002:527 JLINK_WriteReg(CFBP, 0x00000000)  returns 0x00 (0000ms, 0747ms total)
T19A4 002:527 JLINK_SetBPEx(Addr = 0x20000000, Type = 0xFFFFFFF2)  returns 0x0000000A (0000ms, 0747ms total)
T19A4 002:527 JLINK_Go() (0002ms, 0749ms total)
T19A4 002:529 JLINK_IsHalted() -- CPU_ReadMem(2 bytes @ 0x20000000)  returns TRUE (0004ms, 0753ms total)
T19A4 002:533 JLINK_ReadReg(R15 (PC))  returns 0x20000000 (0000ms, 0749ms total)
T19A4 002:533 JLINK_ClrBPEx(BPHandle = 0x0000000A)  returns 0x00 (0000ms, 0749ms total)
T19A4 002:533 JLINK_ReadReg(R0)  returns 0x00000000 (0000ms, 0749ms total)
T19A4 002:600 JLINK_WriteMem(0x20000000, 0x0188 Bytes, ...) -- Data:  00 BE 0A E0 0D 78 2D 06 68 40 08 24 40 00 00 D3 ... -- CPU_WriteMem(392 bytes @ 0x20000000)  returns 0x188 (0003ms, 0752ms total)
T19A4 002:603 JLINK_WriteReg(R0, 0x08000000)  returns 0x00 (0000ms, 0752ms total)
T19A4 002:603 JLINK_WriteReg(R1, 0x00B71B00)  returns 0x00 (0000ms, 0752ms total)
T19A4 002:603 JLINK_WriteReg(R2, 0x00000002)  returns 0x00 (0000ms, 0752ms total)
T19A4 002:603 JLINK_WriteReg(R3, 0x00000000)  returns 0x00 (0000ms, 0752ms total)
T19A4 002:603 JLINK_WriteReg(R4, 0x00000000)  returns 0x00 (0000ms, 0752ms total)
T19A4 002:603 JLINK_WriteReg(R5, 0x00000000)  returns 0x00 (0001ms, 0753ms total)
T19A4 002:604 JLINK_WriteReg(R6, 0x00000000)  returns 0x00 (0000ms, 0753ms total)
T19A4 002:604 JLINK_WriteReg(R7, 0x00000000)  returns 0x00 (0000ms, 0753ms total)
T19A4 002:604 JLINK_WriteReg(R8, 0x00000000)  returns 0x00 (0000ms, 0753ms total)
T19A4 002:604 JLINK_WriteReg(R9, 0x20000184)  returns 0x00 (0000ms, 0753ms total)
T19A4 002:604 JLINK_WriteReg(R10, 0x00000000)  returns 0x00 (0000ms, 0753ms total)
T19A4 002:604 JLINK_WriteReg(R11, 0x00000000)  returns 0x00 (0000ms, 0753ms total)
T19A4 002:604 JLINK_WriteReg(R12, 0x00000000)  returns 0x00 (0000ms, 0753ms total)
T19A4 002:604 JLINK_WriteReg(R13 (SP), 0x20000800)  returns 0x00 (0000ms, 0753ms total)
T19A4 002:604 JLINK_WriteReg(R14, 0x20000001)  returns 0x00 (0000ms, 0753ms total)
T19A4 002:604 JLINK_WriteReg(R15 (PC), 0x2000005E)  returns 0x00 (0000ms, 0753ms total)
T19A4 002:604 JLINK_WriteReg(XPSR, 0x01000000)  returns 0x00 (0000ms, 0753ms total)
T19A4 002:604 JLINK_WriteReg(MSP, 0x20000800)  returns 0x00 (0000ms, 0753ms total)
T19A4 002:604 JLINK_WriteReg(PSP, 0x20000800)  returns 0x00 (0000ms, 0753ms total)
T19A4 002:604 JLINK_WriteReg(CFBP, 0x00000000)  returns 0x00 (0000ms, 0753ms total)
T19A4 002:604 JLINK_SetBPEx(Addr = 0x20000000, Type = 0xFFFFFFF2) -- CPU_ReadMem(4 bytes @ 0x20000000) -- CPU_WriteMem(4 bytes @ 0x20000000) -- CPU_ReadMem(4 bytes @ 0x20000000) -- CPU_WriteMem(4 bytes @ 0x20000000) -- CPU_ReadMem(2 bytes @ 0x20000000)  returns 0x0000000B (0006ms, 0759ms total)
T19A4 002:610 JLINK_Go() -- CPU_WriteMem(2 bytes @ 0x20000000) (0003ms, 0762ms total)
T19A4 002:613 JLINK_IsHalted() -- CPU_ReadMem(2 bytes @ 0x20000000)  returns TRUE (0004ms, 0766ms total)
T19A4 002:617 JLINK_ReadReg(R15 (PC))  returns 0x20000000 (0000ms, 0762ms total)
T19A4 002:617 JLINK_ClrBPEx(BPHandle = 0x0000000B)  returns 0x00 (0000ms, 0762ms total)
T19A4 002:617 JLINK_ReadReg(R0)  returns 0x00000000 (0000ms, 0762ms total)
T19A4 002:617 JLINK_WriteMem(0x20000188, 0x0400 Bytes, ...) -- Data:  88 15 00 20 25 47 00 08 2D 47 00 08 2F 47 00 08 ... -- CPU_WriteMem(1024 bytes @ 0x20000188)  returns 0x400 (0007ms, 0769ms total)
T19A4 002:624 JLINK_WriteReg(R0, 0x08000000)  returns 0x00 (0000ms, 0769ms total)
T19A4 002:624 JLINK_WriteReg(R1, 0x00000400)  returns 0x00 (0000ms, 0769ms total)
T19A4 002:624 JLINK_WriteReg(R2, 0x20000188)  returns 0x00 (0000ms, 0769ms total)
T19A4 002:624 JLINK_WriteReg(R3, 0x00000000)  returns 0x00 (0000ms, 0769ms total)
T19A4 002:624 JLINK_WriteReg(R4, 0x00000000)  returns 0x00 (0000ms, 0769ms total)
T19A4 002:624 JLINK_WriteReg(R5, 0x00000000)  returns 0x00 (0000ms, 0769ms total)
T19A4 002:624 JLINK_WriteReg(R6, 0x00000000)  returns 0x00 (0000ms, 0769ms total)
T19A4 002:624 JLINK_WriteReg(R7, 0x00000000)  returns 0x00 (0000ms, 0769ms total)
T19A4 002:624 JLINK_WriteReg(R8, 0x00000000)  returns 0x00 (0000ms, 0769ms total)
T19A4 002:624 JLINK_WriteReg(R9, 0x20000184)  returns 0x00 (0000ms, 0769ms total)
T19A4 002:624 JLINK_WriteReg(R10, 0x00000000)  returns 0x00 (0000ms, 0769ms total)
T19A4 002:624 JLINK_WriteReg(R11, 0x00000000)  returns 0x00 (0000ms, 0769ms total)
T19A4 002:624 JLINK_WriteReg(R12, 0x00000000)  returns 0x00 (0000ms, 0769ms total)
T19A4 002:624 JLINK_WriteReg(R13 (SP), 0x20000800)  returns 0x00 (0000ms, 0769ms total)
T19A4 002:625 JLINK_WriteReg(R14, 0x20000001)  returns 0x00 (0000ms, 0770ms total)
T19A4 002:625 JLINK_WriteReg(R15 (PC), 0x20000112)  returns 0x00 (0000ms, 0770ms total)
T19A4 002:625 JLINK_WriteReg(XPSR, 0x01000000)  returns 0x00 (0000ms, 0770ms total)
T19A4 002:625 JLINK_WriteReg(MSP, 0x20000800)  returns 0x00 (0000ms, 0770ms total)
T19A4 002:625 JLINK_WriteReg(PSP, 0x20000800)  returns 0x00 (0000ms, 0770ms total)
T19A4 002:625 JLINK_WriteReg(CFBP, 0x00000000)  returns 0x00 (0000ms, 0770ms total)
T19A4 002:625 JLINK_SetBPEx(Addr = 0x20000000, Type = 0xFFFFFFF2)  returns 0x0000000C (0000ms, 0770ms total)
T19A4 002:625 JLINK_Go() (0002ms, 0772ms total)
T19A4 002:627 JLINK_IsHalted()  returns FALSE (0001ms, 0773ms total)
T19A4 002:763 JLINK_IsHalted() -- CPU_ReadMem(2 bytes @ 0x20000000)  returns TRUE (0004ms, 0776ms total)
T19A4 002:767 JLINK_ReadReg(R15 (PC))  returns 0x20000000 (0000ms, 0772ms total)
T19A4 002:767 JLINK_ClrBPEx(BPHandle = 0x0000000C)  returns 0x00 (0000ms, 0772ms total)
T19A4 002:767 JLINK_ReadReg(R0)  returns 0x00000000 (0000ms, 0772ms total)
T19A4 002:767 JLINK_WriteMem(0x20000188, 0x0400 Bytes, ...) -- Data:  88 30 07 F0 57 F9 40 F6 FC 01 4F F0 80 40 05 F0 ... -- CPU_WriteMem(1024 bytes @ 0x20000188)  returns 0x400 (0007ms, 0779ms total)
T19A4 002:774 JLINK_WriteReg(R0, 0x08000400)  returns 0x00 (0000ms, 0779ms total)
T19A4 002:774 JLINK_WriteReg(R1, 0x00000400)  returns 0x00 (0000ms, 0779ms total)
T19A4 002:774 JLINK_WriteReg(R2, 0x20000188)  returns 0x00 (0000ms, 0779ms total)
T19A4 002:774 JLINK_WriteReg(R3, 0x00000000)  returns 0x00 (0000ms, 0779ms total)
T19A4 002:774 JLINK_WriteReg(R4, 0x00000000)  returns 0x00 (0000ms, 0779ms total)
T19A4 002:774 JLINK_WriteReg(R5, 0x00000000)  returns 0x00 (0000ms, 0779ms total)
T19A4 002:774 JLINK_WriteReg(R6, 0x00000000)  returns 0x00 (0000ms, 0779ms total)
T19A4 002:774 JLINK_WriteReg(R7, 0x00000000)  returns 0x00 (0000ms, 0779ms total)
T19A4 002:774 JLINK_WriteReg(R8, 0x00000000)  returns 0x00 (0000ms, 0779ms total)
T19A4 002:774 JLINK_WriteReg(R9, 0x20000184)  returns 0x00 (0000ms, 0779ms total)
T19A4 002:774 JLINK_WriteReg(R10, 0x00000000)  returns 0x00 (0000ms, 0779ms total)
T19A4 002:774 JLINK_WriteReg(R11, 0x00000000)  returns 0x00 (0000ms, 0779ms total)
T19A4 002:774 JLINK_WriteReg(R12, 0x00000000)  returns 0x00 (0000ms, 0779ms total)
T19A4 002:774 JLINK_WriteReg(R13 (SP), 0x20000800)  returns 0x00 (0000ms, 0779ms total)
T19A4 002:774 JLINK_WriteReg(R14, 0x20000001)  returns 0x00 (0000ms, 0779ms total)
T19A4 002:774 JLINK_WriteReg(R15 (PC), 0x20000112)  returns 0x00 (0000ms, 0779ms total)
T19A4 002:774 JLINK_WriteReg(XPSR, 0x01000000)  returns 0x00 (0000ms, 0779ms total)
T19A4 002:774 JLINK_WriteReg(MSP, 0x20000800)  returns 0x00 (0000ms, 0779ms total)
T19A4 002:774 JLINK_WriteReg(PSP, 0x20000800)  returns 0x00 (0000ms, 0779ms total)
T19A4 002:774 JLINK_WriteReg(CFBP, 0x00000000)  returns 0x00 (0000ms, 0779ms total)
T19A4 002:774 JLINK_SetBPEx(Addr = 0x20000000, Type = 0xFFFFFFF2)  returns 0x0000000D (0000ms, 0779ms total)
T19A4 002:774 JLINK_Go() (0003ms, 0782ms total)
T19A4 002:777 JLINK_IsHalted()  returns FALSE (0001ms, 0783ms total)
T19A4 002:899 JLINK_IsHalted() -- CPU_ReadMem(2 bytes @ 0x20000000)  returns TRUE (0004ms, 0786ms total)
T19A4 002:903 JLINK_ReadReg(R15 (PC))  returns 0x20000000 (0000ms, 0782ms total)
T19A4 002:903 JLINK_ClrBPEx(BPHandle = 0x0000000D)  returns 0x00 (0000ms, 0782ms total)
T19A4 002:903 JLINK_ReadReg(R0)  returns 0x00000000 (0000ms, 0782ms total)
T19A4 002:903 JLINK_WriteMem(0x20000188, 0x0400 Bytes, ...) -- Data:  04 F0 0C F9 1C BD 10 B5 49 48 00 78 21 28 0E D0 ... -- CPU_WriteMem(1024 bytes @ 0x20000188)  returns 0x400 (0007ms, 0789ms total)
T19A4 002:910 JLINK_WriteReg(R0, 0x08000800)  returns 0x00 (0000ms, 0789ms total)
T19A4 002:910 JLINK_WriteReg(R1, 0x00000400)  returns 0x00 (0000ms, 0789ms total)
T19A4 002:910 JLINK_WriteReg(R2, 0x20000188)  returns 0x00 (0000ms, 0789ms total)
T19A4 002:910 JLINK_WriteReg(R3, 0x00000000)  returns 0x00 (0000ms, 0789ms total)
T19A4 002:910 JLINK_WriteReg(R4, 0x00000000)  returns 0x00 (0000ms, 0789ms total)
T19A4 002:910 JLINK_WriteReg(R5, 0x00000000)  returns 0x00 (0000ms, 0789ms total)
T19A4 002:910 JLINK_WriteReg(R6, 0x00000000)  returns 0x00 (0000ms, 0789ms total)
T19A4 002:910 JLINK_WriteReg(R7, 0x00000000)  returns 0x00 (0000ms, 0789ms total)
T19A4 002:910 JLINK_WriteReg(R8, 0x00000000)  returns 0x00 (0000ms, 0789ms total)
T19A4 002:910 JLINK_WriteReg(R9, 0x20000184)  returns 0x00 (0000ms, 0789ms total)
T19A4 002:910 JLINK_WriteReg(R10, 0x00000000)  returns 0x00 (0000ms, 0789ms total)
T19A4 002:910 JLINK_WriteReg(R11, 0x00000000)  returns 0x00 (0000ms, 0789ms total)
T19A4 002:910 JLINK_WriteReg(R12, 0x00000000)  returns 0x00 (0000ms, 0789ms total)
T19A4 002:910 JLINK_WriteReg(R13 (SP), 0x20000800)  returns 0x00 (0000ms, 0789ms total)
T19A4 002:910 JLINK_WriteReg(R14, 0x20000001)  returns 0x00 (0000ms, 0789ms total)
T19A4 002:910 JLINK_WriteReg(R15 (PC), 0x20000112)  returns 0x00 (0000ms, 0789ms total)
T19A4 002:910 JLINK_WriteReg(XPSR, 0x01000000)  returns 0x00 (0000ms, 0789ms total)
T19A4 002:910 JLINK_WriteReg(MSP, 0x20000800)  returns 0x00 (0000ms, 0789ms total)
T19A4 002:910 JLINK_WriteReg(PSP, 0x20000800)  returns 0x00 (0000ms, 0789ms total)
T19A4 002:910 JLINK_WriteReg(CFBP, 0x00000000)  returns 0x00 (0000ms, 0789ms total)
T19A4 002:910 JLINK_SetBPEx(Addr = 0x20000000, Type = 0xFFFFFFF2)  returns 0x0000000E (0000ms, 0789ms total)
T19A4 002:910 JLINK_Go() (0003ms, 0792ms total)
T19A4 002:913 JLINK_IsHalted()  returns FALSE (0001ms, 0793ms total)
T19A4 003:098 JLINK_IsHalted() -- CPU_ReadMem(2 bytes @ 0x20000000)  returns TRUE (0004ms, 0796ms total)
T19A4 003:102 JLINK_ReadReg(R15 (PC))  returns 0x20000000 (0000ms, 0792ms total)
T19A4 003:102 JLINK_ClrBPEx(BPHandle = 0x0000000E)  returns 0x00 (0000ms, 0792ms total)
T19A4 003:102 JLINK_ReadReg(R0)  returns 0x00000000 (0000ms, 0792ms total)
T19A4 003:102 JLINK_WriteMem(0x20000188, 0x0400 Bytes, ...) -- Data:  F2 EE 04 1A 81 EE 21 2A 80 ED 02 2A 8D 4A 12 78 ... -- CPU_WriteMem(1024 bytes @ 0x20000188)  returns 0x400 (0007ms, 0799ms total)
T19A4 003:109 JLINK_WriteReg(R0, 0x08000C00)  returns 0x00 (0000ms, 0799ms total)
T19A4 003:109 JLINK_WriteReg(R1, 0x00000400)  returns 0x00 (0000ms, 0799ms total)
T19A4 003:109 JLINK_WriteReg(R2, 0x20000188)  returns 0x00 (0000ms, 0799ms total)
T19A4 003:109 JLINK_WriteReg(R3, 0x00000000)  returns 0x00 (0000ms, 0799ms total)
T19A4 003:109 JLINK_WriteReg(R4, 0x00000000)  returns 0x00 (0000ms, 0799ms total)
T19A4 003:109 JLINK_WriteReg(R5, 0x00000000)  returns 0x00 (0000ms, 0799ms total)
T19A4 003:109 JLINK_WriteReg(R6, 0x00000000)  returns 0x00 (0000ms, 0799ms total)
T19A4 003:109 JLINK_WriteReg(R7, 0x00000000)  returns 0x00 (0000ms, 0799ms total)
T19A4 003:109 JLINK_WriteReg(R8, 0x00000000)  returns 0x00 (0000ms, 0799ms total)
T19A4 003:109 JLINK_WriteReg(R9, 0x20000184)  returns 0x00 (0000ms, 0799ms total)
T19A4 003:109 JLINK_WriteReg(R10, 0x00000000)  returns 0x00 (0000ms, 0799ms total)
T19A4 003:109 JLINK_WriteReg(R11, 0x00000000)  returns 0x00 (0000ms, 0799ms total)
T19A4 003:109 JLINK_WriteReg(R12, 0x00000000)  returns 0x00 (0000ms, 0799ms total)
T19A4 003:109 JLINK_WriteReg(R13 (SP), 0x20000800)  returns 0x00 (0000ms, 0799ms total)
T19A4 003:109 JLINK_WriteReg(R14, 0x20000001)  returns 0x00 (0000ms, 0799ms total)
T19A4 003:109 JLINK_WriteReg(R15 (PC), 0x20000112)  returns 0x00 (0000ms, 0799ms total)
T19A4 003:109 JLINK_WriteReg(XPSR, 0x01000000)  returns 0x00 (0000ms, 0799ms total)
T19A4 003:109 JLINK_WriteReg(MSP, 0x20000800)  returns 0x00 (0000ms, 0799ms total)
T19A4 003:109 JLINK_WriteReg(PSP, 0x20000800)  returns 0x00 (0000ms, 0799ms total)
T19A4 003:109 JLINK_WriteReg(CFBP, 0x00000000)  returns 0x00 (0000ms, 0799ms total)
T19A4 003:109 JLINK_SetBPEx(Addr = 0x20000000, Type = 0xFFFFFFF2)  returns 0x0000000F (0000ms, 0799ms total)
T19A4 003:109 JLINK_Go() (0003ms, 0802ms total)
T19A4 003:112 JLINK_IsHalted()  returns FALSE (0001ms, 0803ms total)
T19A4 003:234 JLINK_IsHalted() -- CPU_ReadMem(2 bytes @ 0x20000000)  returns TRUE (0005ms, 0807ms total)
T19A4 003:239 JLINK_ReadReg(R15 (PC))  returns 0x20000000 (0000ms, 0802ms total)
T19A4 003:239 JLINK_ClrBPEx(BPHandle = 0x0000000F)  returns 0x00 (0000ms, 0802ms total)
T19A4 003:239 JLINK_ReadReg(R0)  returns 0x00000000 (0000ms, 0802ms total)
T19A4 003:239 JLINK_WriteMem(0x20000188, 0x0400 Bytes, ...) -- Data:  90 ED 00 0A C0 EE 08 0A C0 ED 00 0A 76 49 B1 F9 ... -- CPU_WriteMem(1024 bytes @ 0x20000188)  returns 0x400 (0007ms, 0809ms total)
T19A4 003:246 JLINK_WriteReg(R0, 0x08001000)  returns 0x00 (0000ms, 0809ms total)
T19A4 003:246 JLINK_WriteReg(R1, 0x00000400)  returns 0x00 (0000ms, 0809ms total)
T19A4 003:246 JLINK_WriteReg(R2, 0x20000188)  returns 0x00 (0000ms, 0809ms total)
T19A4 003:246 JLINK_WriteReg(R3, 0x00000000)  returns 0x00 (0000ms, 0809ms total)
T19A4 003:246 JLINK_WriteReg(R4, 0x00000000)  returns 0x00 (0000ms, 0809ms total)
T19A4 003:246 JLINK_WriteReg(R5, 0x00000000)  returns 0x00 (0000ms, 0809ms total)
T19A4 003:246 JLINK_WriteReg(R6, 0x00000000)  returns 0x00 (0000ms, 0809ms total)
T19A4 003:246 JLINK_WriteReg(R7, 0x00000000)  returns 0x00 (0000ms, 0809ms total)
T19A4 003:246 JLINK_WriteReg(R8, 0x00000000)  returns 0x00 (0000ms, 0809ms total)
T19A4 003:246 JLINK_WriteReg(R9, 0x20000184)  returns 0x00 (0000ms, 0809ms total)
T19A4 003:246 JLINK_WriteReg(R10, 0x00000000)  returns 0x00 (0000ms, 0809ms total)
T19A4 003:246 JLINK_WriteReg(R11, 0x00000000)  returns 0x00 (0000ms, 0809ms total)
T19A4 003:246 JLINK_WriteReg(R12, 0x00000000)  returns 0x00 (0000ms, 0809ms total)
T19A4 003:246 JLINK_WriteReg(R13 (SP), 0x20000800)  returns 0x00 (0000ms, 0809ms total)
T19A4 003:246 JLINK_WriteReg(R14, 0x20000001)  returns 0x00 (0000ms, 0809ms total)
T19A4 003:246 JLINK_WriteReg(R15 (PC), 0x20000112)  returns 0x00 (0000ms, 0809ms total)
T19A4 003:246 JLINK_WriteReg(XPSR, 0x01000000)  returns 0x00 (0000ms, 0809ms total)
T19A4 003:246 JLINK_WriteReg(MSP, 0x20000800)  returns 0x00 (0000ms, 0809ms total)
T19A4 003:246 JLINK_WriteReg(PSP, 0x20000800)  returns 0x00 (0000ms, 0809ms total)
T19A4 003:246 JLINK_WriteReg(CFBP, 0x00000000)  returns 0x00 (0000ms, 0809ms total)
T19A4 003:246 JLINK_SetBPEx(Addr = 0x20000000, Type = 0xFFFFFFF2)  returns 0x00000010 (0000ms, 0809ms total)
T19A4 003:247 JLINK_Go() (0002ms, 0812ms total)
T19A4 003:249 JLINK_IsHalted()  returns FALSE (0001ms, 0813ms total)
T19A4 003:369 JLINK_IsHalted() -- CPU_ReadMem(2 bytes @ 0x20000000)  returns TRUE (0004ms, 0816ms total)
T19A4 003:373 JLINK_ReadReg(R15 (PC))  returns 0x20000000 (0000ms, 0812ms total)
T19A4 003:373 JLINK_ClrBPEx(BPHandle = 0x00000010)  returns 0x00 (0000ms, 0812ms total)
T19A4 003:373 JLINK_ReadReg(R0)  returns 0x00000000 (0000ms, 0812ms total)
T19A4 003:373 JLINK_WriteMem(0x20000188, 0x0400 Bytes, ...) -- Data:  0C 46 B0 EE 40 8A B4 F5 FF 7F 03 DD 00 20 BD EC ... -- CPU_WriteMem(1024 bytes @ 0x20000188)  returns 0x400 (0008ms, 0820ms total)
T19A4 003:381 JLINK_WriteReg(R0, 0x08001400)  returns 0x00 (0000ms, 0820ms total)
T19A4 003:381 JLINK_WriteReg(R1, 0x00000400)  returns 0x00 (0000ms, 0820ms total)
T19A4 003:381 JLINK_WriteReg(R2, 0x20000188)  returns 0x00 (0000ms, 0820ms total)
T19A4 003:381 JLINK_WriteReg(R3, 0x00000000)  returns 0x00 (0000ms, 0820ms total)
T19A4 003:381 JLINK_WriteReg(R4, 0x00000000)  returns 0x00 (0000ms, 0820ms total)
T19A4 003:381 JLINK_WriteReg(R5, 0x00000000)  returns 0x00 (0000ms, 0820ms total)
T19A4 003:381 JLINK_WriteReg(R6, 0x00000000)  returns 0x00 (0000ms, 0820ms total)
T19A4 003:381 JLINK_WriteReg(R7, 0x00000000)  returns 0x00 (0000ms, 0820ms total)
T19A4 003:381 JLINK_WriteReg(R8, 0x00000000)  returns 0x00 (0000ms, 0820ms total)
T19A4 003:381 JLINK_WriteReg(R9, 0x20000184)  returns 0x00 (0000ms, 0820ms total)
T19A4 003:381 JLINK_WriteReg(R10, 0x00000000)  returns 0x00 (0000ms, 0820ms total)
T19A4 003:381 JLINK_WriteReg(R11, 0x00000000)  returns 0x00 (0000ms, 0820ms total)
T19A4 003:381 JLINK_WriteReg(R12, 0x00000000)  returns 0x00 (0000ms, 0820ms total)
T19A4 003:381 JLINK_WriteReg(R13 (SP), 0x20000800)  returns 0x00 (0000ms, 0820ms total)
T19A4 003:381 JLINK_WriteReg(R14, 0x20000001)  returns 0x00 (0000ms, 0820ms total)
T19A4 003:381 JLINK_WriteReg(R15 (PC), 0x20000112)  returns 0x00 (0000ms, 0820ms total)
T19A4 003:381 JLINK_WriteReg(XPSR, 0x01000000)  returns 0x00 (0000ms, 0820ms total)
T19A4 003:381 JLINK_WriteReg(MSP, 0x20000800)  returns 0x00 (0000ms, 0820ms total)
T19A4 003:381 JLINK_WriteReg(PSP, 0x20000800)  returns 0x00 (0000ms, 0820ms total)
T19A4 003:381 JLINK_WriteReg(CFBP, 0x00000000)  returns 0x00 (0000ms, 0820ms total)
T19A4 003:381 JLINK_SetBPEx(Addr = 0x20000000, Type = 0xFFFFFFF2)  returns 0x00000011 (0000ms, 0820ms total)
T19A4 003:381 JLINK_Go() (0003ms, 0823ms total)
T19A4 003:384 JLINK_IsHalted()  returns FALSE (0001ms, 0824ms total)
T19A4 003:529 JLINK_IsHalted() -- CPU_ReadMem(2 bytes @ 0x20000000)  returns TRUE (0004ms, 0827ms total)
T19A4 003:533 JLINK_ReadReg(R15 (PC))  returns 0x20000000 (0000ms, 0823ms total)
T19A4 003:533 JLINK_ClrBPEx(BPHandle = 0x00000011)  returns 0x00 (0000ms, 0823ms total)
T19A4 003:533 JLINK_ReadReg(R0)  returns 0x00000000 (0000ms, 0823ms total)
T19A4 003:533 JLINK_WriteMem(0x20000188, 0x0400 Bytes, ...) -- Data:  00 00 0E 08 78 56 34 12 6C 08 00 20 8C 08 00 20 ... -- CPU_WriteMem(1024 bytes @ 0x20000188)  returns 0x400 (0007ms, 0830ms total)
T19A4 003:540 JLINK_WriteReg(R0, 0x08001800)  returns 0x00 (0000ms, 0830ms total)
T19A4 003:540 JLINK_WriteReg(R1, 0x00000400)  returns 0x00 (0000ms, 0830ms total)
T19A4 003:540 JLINK_WriteReg(R2, 0x20000188)  returns 0x00 (0000ms, 0830ms total)
T19A4 003:540 JLINK_WriteReg(R3, 0x00000000)  returns 0x00 (0000ms, 0830ms total)
T19A4 003:540 JLINK_WriteReg(R4, 0x00000000)  returns 0x00 (0000ms, 0830ms total)
T19A4 003:540 JLINK_WriteReg(R5, 0x00000000)  returns 0x00 (0000ms, 0830ms total)
T19A4 003:540 JLINK_WriteReg(R6, 0x00000000)  returns 0x00 (0000ms, 0830ms total)
T19A4 003:540 JLINK_WriteReg(R7, 0x00000000)  returns 0x00 (0000ms, 0830ms total)
T19A4 003:540 JLINK_WriteReg(R8, 0x00000000)  returns 0x00 (0000ms, 0830ms total)
T19A4 003:540 JLINK_WriteReg(R9, 0x20000184)  returns 0x00 (0000ms, 0830ms total)
T19A4 003:540 JLINK_WriteReg(R10, 0x00000000)  returns 0x00 (0000ms, 0830ms total)
T19A4 003:540 JLINK_WriteReg(R11, 0x00000000)  returns 0x00 (0000ms, 0830ms total)
T19A4 003:540 JLINK_WriteReg(R12, 0x00000000)  returns 0x00 (0000ms, 0830ms total)
T19A4 003:540 JLINK_WriteReg(R13 (SP), 0x20000800)  returns 0x00 (0000ms, 0830ms total)
T19A4 003:540 JLINK_WriteReg(R14, 0x20000001)  returns 0x00 (0000ms, 0830ms total)
T19A4 003:540 JLINK_WriteReg(R15 (PC), 0x20000112)  returns 0x00 (0000ms, 0830ms total)
T19A4 003:540 JLINK_WriteReg(XPSR, 0x01000000)  returns 0x00 (0000ms, 0830ms total)
T19A4 003:540 JLINK_WriteReg(MSP, 0x20000800)  returns 0x00 (0000ms, 0830ms total)
T19A4 003:540 JLINK_WriteReg(PSP, 0x20000800)  returns 0x00 (0000ms, 0830ms total)
T19A4 003:540 JLINK_WriteReg(CFBP, 0x00000000)  returns 0x00 (0000ms, 0830ms total)
T19A4 003:540 JLINK_SetBPEx(Addr = 0x20000000, Type = 0xFFFFFFF2)  returns 0x00000012 (0000ms, 0830ms total)
T19A4 003:540 JLINK_Go() (0003ms, 0833ms total)
T19A4 003:543 JLINK_IsHalted()  returns FALSE (0001ms, 0834ms total)
T19A4 003:668 JLINK_IsHalted() -- CPU_ReadMem(2 bytes @ 0x20000000)  returns TRUE (0004ms, 0837ms total)
T19A4 003:672 JLINK_ReadReg(R15 (PC))  returns 0x20000000 (0000ms, 0833ms total)
T19A4 003:672 JLINK_ClrBPEx(BPHandle = 0x00000012)  returns 0x00 (0000ms, 0833ms total)
T19A4 003:672 JLINK_ReadReg(R0)  returns 0x00000000 (0000ms, 0833ms total)
T19A4 003:672 JLINK_WriteMem(0x20000188, 0x0400 Bytes, ...) -- Data:  1F 0A 80 EE 20 1A 00 E0 51 E0 1E 48 80 ED 02 1A ... -- CPU_WriteMem(1024 bytes @ 0x20000188)  returns 0x400 (0007ms, 0840ms total)
T19A4 003:679 JLINK_WriteReg(R0, 0x08001C00)  returns 0x00 (0000ms, 0840ms total)
T19A4 003:679 JLINK_WriteReg(R1, 0x00000400)  returns 0x00 (0000ms, 0840ms total)
T19A4 003:679 JLINK_WriteReg(R2, 0x20000188)  returns 0x00 (0000ms, 0840ms total)
T19A4 003:679 JLINK_WriteReg(R3, 0x00000000)  returns 0x00 (0000ms, 0840ms total)
T19A4 003:679 JLINK_WriteReg(R4, 0x00000000)  returns 0x00 (0000ms, 0840ms total)
T19A4 003:679 JLINK_WriteReg(R5, 0x00000000)  returns 0x00 (0000ms, 0840ms total)
